# ZS_DIO 數字量輸入輸出系列 Modbus 摘要

> 來源文件：`doc/ZS_DIO数字量输入输出系列使用手册(RS485&RS232版).pdf` V2.1

## 產品概述

- 支援 1~48 通道繼電器/晶體管輸出 + 1~48 通道數位輸入
- RS485 Modbus RTU 通訊
- 站號 1~255，鮑率 4800~115200bps
- 輸出類型：繼電器（5A/10A/16A/30A）或晶體管（PNP/NPN, 3A）

## 通訊預設參數

| 參數 | 預設值 |
|---|---|
| 站號 | 1 |
| 鮑率 | 38400 |
| 資料位 | 8 |
| 停止位 | 1 |
| 校驗 | 無 |

## 支援的功能碼

| 功能碼 | 用途 |
|---|---|
| 0x01 | 讀線圈（繼電器輸出狀態） |
| 0x02 | 讀離散輸入（DI 狀態） |
| 0x03 | 讀保持寄存器 |
| 0x04 | 讀輸入寄存器 |
| 0x05 | 寫單線圈 |
| 0x06 | 寫單寄存器 |
| 0x0F | 寫多線圈 |
| 0x10 | 寫多寄存器 |

## 線圈寄存器 (0x01/0x05) — 繼電器輸出

| 協議地址 | PLC 地址 | 用途 |
|---|---|---|
| 0x0000~0x002F | 00001~00048 | 通道 1~48 控制（0=關, 1=開） |

## 離散輸入寄存器 (0x02) — DI 輸入

| 協議地址 | PLC 地址 | 用途 |
|---|---|---|
| 0x0000~0x002F | 10001~10048 | 通道 1~48 輸入狀態（0=未觸發, 1=已觸發） |

## 輸入寄存器 (0x04) — 唯讀狀態

| 協議地址 | PLC 地址 | 用途 |
|---|---|---|
| 0x0000~0x002F | 30001~30048 | 各通道輸出狀態（0=關, 1=開） |
| 0x0030 | 30049 | 通道 1~16 合併狀態（16-bit bitmask，低位=CH1） |
| 0x0031 | 30050 | 通道 17~32 合併狀態 |
| 0x0032 | 30051 | 通道 33~48 合併狀態 |

## 保持寄存器 (0x03/0x06) — 讀寫控制

### 個別通道控制

| 協議地址 | PLC 地址 | 復位值 | 用途 |
|---|---|---|---|
| 0x0000~0x002F | 40001~40048 | 0 | 各通道控制 |

通道控制具有 5 種工作模式：
1. **普通模式** — 0=關, 1=開
2. **聯動模式** — 輸入觸發聯動輸出
3. **點動模式** — 寫 1 時開啟，自動關閉
4. **開關循環模式** — 開關時間設置，(N-1)×0.01s
5. **開固定時長模式** — 開持續時間設置，(N-1)×0.01s

### 系統/批量控制

| 協議地址 | PLC 地址 | 復位值 | 用途 |
|---|---|---|---|
| 0x0030 | 40049 | 0 | 通訊檢測時間（N×0.1s，0=不檢測，斷開 N 秒後全關） |
| 0x0031 | 40050 | 0 | 輸入口狀態上傳工作控制（0=不上傳, 1=變化時上傳） |
| 0x0032 | 40051 | 1 | RS485 站號（1~255） |
| 0x0033 | 40052 | 4 | 鮑率（0=4800, 1=9600, 2=14400, 3=19200, 4=38400, 5=56000, 6=57600, 7=115200） |
| 0x0034 | 40053 | 0 | **批量控制**（0=全部關閉, 1=全部開啟） |
| 0x0035 | 40054 | 0 | 按位控制通道 1~16（bitmask，低位=CH1） |
| 0x0036 | 40055 | 0 | 按位控制通道 17~32 |
| 0x0037 | 40056 | 0 | 按位控制通道 33~48 |
| 0x003D | 40062 | 0 | 奇偶校驗（0=無, 1=奇, 2=偶） |

### 通道模式設置

| 協議地址 | PLC 地址 | 復位值 | 用途 |
|---|---|---|---|
| 0x0096~0x00C6 | 40151~40198 | 0 | 各通道工作模式（0=普通, 1=聯動, 2=點動, 3=開關循環, 4=自動復位） |

**注意：** 0x0032（站號）、0x0033（鮑率）、0x0034（批量控制）修改後斷電保存，需重新上電生效。

## 指令範例

| 操作 | 封包 (HEX) |
|---|---|
| 改站號為 2 | `01 06 00 32 00 02 A9 C4` |
| 改鮑率為 9600 | `01 06 00 33 00 01 B8 05` |
| 開繼電器 1 (0x06) | `01 06 00 00 00 01 48 0A` |
| 關繼電器 1 (0x06) | `01 06 00 00 00 00 89 CA` |
| 開繼電器 1 (0x05) | `01 05 00 00 FF 00 8C 3A` |
| 寫多寄存器 CH1+CH2 開 | `01 10 00 00 00 02 04 00 01 00 01 63 AF` |
| 寫多線圈 CH1~4 開 | `01 0F 00 00 00 04 01 0F 7E 92` |
| 讀通道 1 輸入 (0x04) | `01 04 00 00 00 01 31 CA` |

## CRC16

- 初始值：0xFFFF
- 多項式：0xA001（LSB first）
- CRC Low byte 在前，High byte 在後
